# HZ S RI R 50
100000 -0.010482841 5.3372e-05
599000 -0.010160267 0.000379362
1098000 -0.01017685 0.000660499
1597000 -0.010154459 0.00092005
2096000 -0.010141231 0.001156528
2595000 -0.010096466 0.001434454
3094000 -0.010063235 0.001709262
3593000 -0.010079103 0.00192328
4092000 -0.010073986 0.002182085
4591000 -0.009991957 0.002421987
5090000 -0.010006578 0.002655542
5589000 -0.010001718 0.002932849
6088000 -0.009931886 0.003162757
6587000 -0.009949151 0.003429991
7086000 -0.009923356 0.003661444
7585000 -0.00994344 0.003892235
8084000 -0.009909995 0.004176172
8583000 -0.009870463 0.004394668
9082000 -0.009848354 0.004632633
9581000 -0.009813047 0.004915074
10080000 -0.009779776 0.005147746
10579000 -0.009754226 0.005379213
11078000 -0.00975086 0.00560507
11577000 -0.009735566 0.005849232
12076000 -0.009713062 0.006145646
12575000 -0.009719372 0.006394815
13074000 -0.009699859 0.006606711
13573000 -0.009613132 0.006858169
14072000 -0.009631637 0.007089122
14571000 -0.009580024 0.007332003
15070000 -0.009545648 0.007566637
15569000 -0.0095243 0.007844496
16068000 -0.009467969 0.008053422
16567000 -0.009497363 0.008346273
17066000 -0.009424444 0.008531291
17565000 -0.009394788 0.008745536
18064000 -0.009364258 0.009029855
18563000 -0.009296247 0.009273963
19062000 -0.009320521 0.009493757
19561000 -0.009286166 0.009756431
20060000 -0.009231576 0.009997732
20559000 -0.009182949 0.010244885
21058000 -0.009166099 0.010472126
21557000 -0.009118879 0.010711758
22056000 -0.009090076 0.010963777
22555000 -0.009075719 0.011197271
23054000 -0.009036925 0.011435816
23553000 -0.008991617 0.011656552
24052000 -0.008971458 0.011916131
24551000 -0.008943779 0.012140936
25050000 -0.008849403 0.012405624
25549000 -0.008878177 0.012614535
26048000 -0.008822136 0.012881995
26547000 -0.008740184 0.013095299
27046000 -0.008736802 0.013362033
27545000 -0.008669835 0.013632578
28044000 -0.00863302 0.013823274
28543000 -0.008584871 0.014069018
29042000 -0.008540687 0.014284944
29541000 -0.008528439 0.014542266
30040000 -0.008444273 0.014806721
30539000 -0.008430691 0.015036716
31038000 -0.008396073 0.015260794
31537000 -0.008346714 0.015507112
32036000 -0.008262159 0.015750624
32535000 -0.008279044 0.015937171
33034000 -0.00818941 0.016206609
33533000 -0.008149167 0.01645777
34032000 -0.008144957 0.016651632
34531000 -0.008048938 0.016938345
35030000 -0.008010452 0.017139932
35529000 -0.007945169 0.017362089
36028000 -0.007905524 0.017555071
36527000 -0.007848895 0.017818037
37026000 -0.007759296 0.018031876
37525000 -0.007748603 0.018282381
38024000 -0.007690711 0.018472287
38523000 -0.007628606 0.018736405
39022000 -0.007534055 0.019024001
39521000 -0.007515338 0.019232807
40020000 -0.007416004 0.019504619
40519000 -0.007368739 0.019729325
41018000 -0.007328554 0.019969625
41517000 -0.007247447 0.020212713
42016000 -0.007209287 0.020451771
42515000 -0.007103557 0.02068752
43014000 -0.007057126 0.020891508
43513000 -0.006933187 0.02115789
44012000 -0.006925553 0.021432615
44511000 -0.006888216 0.021669814
45010000 -0.006804466 0.021905908
45509000 -0.006731399 0.022105008
46008000 -0.006706296 0.02234124
46507000 -0.006625788 0.022556504
47006000 -0.006586358 0.022794399
47505000 -0.006466076 0.023031203
48004000 -0.006405171 0.023275224
48503000 -0.00637736 0.023538064
49002000 -0.006246889 0.023757282
49501000 -0.006235866 0.023986425
50000000 -0.006168488 0.024203963
